!Agilent Technologies,E5071C,MY46108331,A.09.41
!Date: Mon Jan 01 01:56:33 2001
!Data & Calibration Information:
!Freq	S11:SOLT2(ON)	S21:SOLT2(ON)	S12:SOLT2(ON)	S22:SOLT2(ON)
# Hz S RI R 50
1000000000	-8.976621e-001	-3.141560e-001	-2.615434e-004	9.902687e-006	-2.593145e-004	1.031069e-005	8.644308e-001	2.870063e-002
1020000000	-9.381455e-001	-1.507355e-001	-4.615255e-004	1.185821e-004	-4.607164e-004	1.145434e-004	8.725177e-001	-9.557757e-002
1040000000	-9.484443e-001	1.333145e-002	2.272862e-004	6.463826e-004	2.211151e-004	6.477070e-004	8.545719e-001	-2.244936e-001
1060000000	-9.301260e-001	1.728556e-001	1.469877e-004	-4.280693e-005	1.472734e-004	-4.215014e-005	8.148405e-001	-3.538137e-001
1080000000	-8.846982e-001	3.243376e-001	7.201029e-004	-4.744877e-004	7.250382e-004	-4.698183e-004	7.522260e-001	-4.683567e-001
1100000000	-8.188770e-001	4.666895e-001	-5.550208e-004	-4.508526e-004	-5.518117e-004	-4.571939e-004	6.695560e-001	-5.681193e-001
1120000000	-7.325649e-001	5.906591e-001	-5.081979e-004	-8.309380e-004	-5.029965e-004	-8.398286e-004	5.806295e-001	-6.476860e-001
1140000000	-6.285846e-001	6.975240e-001	-1.343505e-003	7.534707e-004	-1.350585e-003	7.456021e-004	4.860236e-001	-7.211702e-001
1160000000	-5.068527e-001	7.861499e-001	-6.046590e-004	1.290622e-003	-6.214643e-004	1.294668e-003	3.888184e-001	-7.856632e-001
1180000000	-3.691216e-001	8.559741e-001	1.462160e-004	1.260124e-003	1.340130e-004	1.270256e-003	2.778804e-001	-8.413246e-001
1200000000	-2.320801e-001	9.037838e-001	8.035609e-004	1.134152e-003	7.981631e-004	1.146263e-003	1.494322e-001	-8.771418e-001
1220000000	-8.644419e-002	9.267317e-001	1.199519e-003	3.885535e-004	1.208415e-003	3.949684e-004	1.349936e-002	-8.937233e-001
1240000000	6.190294e-002	9.239883e-001	8.446205e-004	-4.089654e-005	8.510803e-004	-4.040192e-005	-1.211985e-001	-8.889613e-001
1260000000	2.122818e-001	8.943766e-001	1.149516e-004	-3.220104e-004	1.150281e-004	-3.234025e-004	-2.534795e-001	-8.627142e-001
1280000000	3.571781e-001	8.474550e-001	2.678922e-004	3.981000e-004	2.680351e-004	4.050853e-004	-3.794040e-001	-8.108036e-001
1300000000	4.919959e-001	7.745134e-001	7.635778e-004	1.166373e-004	7.717560e-004	1.235435e-004	-4.911908e-001	-7.393840e-001
1320000000	6.122049e-001	6.764174e-001	1.231637e-003	7.066834e-004	1.239981e-003	7.152776e-004	-5.887644e-001	-6.567037e-001
1340000000	7.124992e-001	5.560018e-001	1.889610e-003	-1.062153e-003	1.905614e-003	-1.070962e-003	-6.734662e-001	-5.658237e-001
1360000000	7.964304e-001	4.145855e-001	5.033379e-004	-2.308619e-003	5.128743e-004	-2.336136e-003	-7.468475e-001	-4.715412e-001
1380000000	8.532745e-001	2.618640e-001	-2.964136e-004	-1.833563e-003	-2.920054e-004	-1.846652e-003	-8.107512e-001	-3.643357e-001
1400000000	8.806637e-001	9.733849e-002	-1.218437e-003	-1.637563e-003	-1.233196e-003	-1.655100e-003	-8.609464e-001	-2.401522e-001
1420000000	8.751343e-001	-7.095818e-002	-1.963935e-003	-5.127740e-004	-1.981173e-003	-5.073487e-004	-8.892267e-001	-1.076202e-001
1440000000	8.350465e-001	-2.395098e-001	-7.280199e-004	3.449709e-004	-7.320093e-004	3.484276e-004	-8.940867e-001	2.730129e-002
1460000000	7.623284e-001	-4.005871e-001	-1.284691e-003	4.231028e-004	-1.297156e-003	4.331150e-004	-8.742733e-001	1.583389e-001
1480000000	6.564015e-001	-5.421517e-001	-2.231587e-004	4.532543e-004	-2.256374e-004	4.607457e-004	-8.346661e-001	2.821162e-001
1500000000	5.200979e-001	-6.604937e-001	-5.699802e-004	-8.558432e-005	-5.714656e-004	-7.885788e-005	-7.798565e-001	3.941590e-001
1520000000	3.669536e-001	-7.482764e-001	-8.698184e-004	-4.430638e-005	-8.737721e-004	-4.136563e-005	-7.116029e-001	4.965913e-001
1540000000	1.936976e-001	-8.013210e-001	-1.491176e-003	-3.996645e-004	-1.508450e-003	-3.899093e-004	-6.293688e-001	5.895453e-001
1560000000	1.189116e-002	-8.134244e-001	-2.521931e-003	2.399056e-003	-2.527309e-003	2.431927e-003	-5.361798e-001	6.706265e-001
1580000000	-1.620859e-001	-7.875240e-001	-1.125023e-003	3.075797e-003	-1.108203e-003	3.107213e-003	-4.312861e-001	7.378998e-001
1600000000	-3.305702e-001	-7.279756e-001	6.167333e-004	4.265719e-003	6.566254e-004	4.264800e-003	-3.132579e-001	7.908410e-001
1620000000	-4.738207e-001	-6.299459e-001	3.300551e-003	3.333206e-003	3.332881e-003	3.320077e-003	-1.826940e-001	8.218270e-001
1640000000	-5.902412e-001	-5.088661e-001	4.632507e-003	5.198980e-004	4.653173e-003	4.807364e-004	-4.353871e-002	8.272760e-001
1660000000	-6.739011e-001	-3.681031e-001	3.012919e-003	-1.880982e-003	3.003798e-003	-1.910335e-003	9.155707e-002	7.995360e-001
1680000000	-7.307184e-001	-2.166144e-001	2.488605e-003	-1.063134e-003	2.481290e-003	-1.076622e-003	2.101617e-001	7.434458e-001
1700000000	-7.537698e-001	-6.363965e-002	2.348848e-003	-1.994298e-003	2.330417e-003	-1.997253e-003	3.115395e-001	6.702629e-001
1720000000	-7.434788e-001	8.347874e-002	3.020778e-003	-1.565675e-003	3.006596e-003	-1.585145e-003	3.936772e-001	5.848318e-001
1740000000	-7.030381e-001	2.235837e-001	5.729194e-004	-5.329457e-003	5.328922e-004	-5.317304e-003	4.636158e-001	4.887637e-001
1760000000	-6.448945e-001	3.495160e-001	-5.949717e-004	-2.529243e-003	-5.988321e-004	-2.524699e-003	5.054038e-001	3.806854e-001
1780000000	-5.646691e-001	4.594255e-001	-1.894660e-003	-4.663233e-003	-1.893056e-003	-4.634411e-003	5.259405e-001	2.659509e-001
1800000000	-4.670660e-001	5.526857e-001	-2.558665e-003	-2.371535e-003	-2.566844e-003	-2.358475e-003	5.147322e-001	1.446016e-001
1820000000	-3.533511e-001	6.187335e-001	-3.090576e-003	-3.676301e-003	-3.097495e-003	-3.645639e-003	4.661733e-001	4.311838e-002
1840000000	-2.285874e-001	6.665634e-001	-6.241139e-003	-1.575740e-003	-6.214135e-003	-1.563025e-003	3.923606e-001	-3.067583e-002
1860000000	-1.036848e-001	6.801598e-001	-5.156596e-003	1.375171e-004	-5.151355e-003	1.310101e-004	3.058962e-001	-6.274722e-002
1880000000	1.412471e-002	6.783544e-001	-7.174925e-003	3.723021e-003	-7.158151e-003	3.695817e-003	2.343542e-001	-6.360088e-002
1900000000	1.346947e-001	6.502402e-001	-1.084768e-003	7.266087e-003	-1.102414e-003	7.251454e-003	1.828972e-001	-4.622128e-002
1920000000	2.459119e-001	5.955813e-001	6.974687e-004	4.033187e-003	7.101671e-004	4.027550e-003	1.529799e-001	-1.638289e-002
1940000000	3.361820e-001	5.286101e-001	1.865616e-003	1.990849e-003	1.858146e-003	1.979237e-003	1.425910e-001	1.138775e-002
1960000000	4.173085e-001	4.420149e-001	-1.368127e-004	3.814796e-003	-1.324185e-004	3.834858e-003	1.413954e-001	2.666301e-002
1980000000	4.705937e-001	3.373327e-001	4.031003e-004	2.406795e-003	3.953369e-004	2.423101e-003	1.486777e-001	3.505790e-002
2000000000	5.019334e-001	2.237044e-001	2.969588e-003	5.964427e-003	2.963368e-003	5.963735e-003	1.581509e-001	5.744989e-002
2020000000	5.061069e-001	1.139360e-001	6.451111e-003	1.038984e-003	6.451992e-003	1.064184e-003	1.810035e-001	4.577520e-002
2040000000	4.817403e-001	6.034862e-003	5.877459e-003	-4.395867e-004	5.917102e-003	-4.468489e-004	2.062280e-001	3.794722e-002
2060000000	4.338170e-001	-8.117759e-002	2.686977e-003	-3.639748e-003	2.701103e-003	-3.656527e-003	2.176266e-001	1.543668e-002
2080000000	3.661584e-001	-1.624357e-001	1.914948e-003	-3.332451e-003	1.917726e-003	-3.349708e-003	2.246693e-001	-1.480917e-002
2100000000	2.918420e-001	-2.103342e-001	5.279116e-004	-1.716489e-003	5.039731e-004	-1.709319e-003	2.230406e-001	-3.701219e-002
2120000000	2.066938e-001	-2.506891e-001	3.273890e-003	-2.549188e-003	3.286289e-003	-2.545423e-003	2.129564e-001	-6.829342e-002
2140000000	1.240633e-001	-2.509602e-001	1.386043e-003	-4.412143e-003	1.396543e-003	-4.405495e-003	2.033739e-001	-9.518754e-002
2160000000	5.267722e-002	-2.368102e-001	-2.977370e-003	-6.720109e-003	-3.003844e-003	-6.732412e-003	1.840968e-001	-1.162808e-001
2180000000	-6.905704e-003	-2.204532e-001	-4.066797e-003	-1.733677e-003	-4.081057e-003	-1.737519e-003	1.617249e-001	-1.347630e-001
2200000000	-6.643874e-002	-1.795722e-001	-3.012954e-003	-2.865723e-004	-3.025120e-003	-2.697475e-004	1.315970e-001	-1.482632e-001
2220000000	-9.698933e-002	-1.377895e-001	-1.889917e-003	-1.430190e-004	-1.899647e-003	-1.426689e-004	1.019338e-001	-1.551924e-001
2240000000	-1.259964e-001	-1.018739e-001	-1.090950e-003	1.845629e-003	-1.074849e-003	1.871773e-003	7.531895e-002	-1.500276e-001
2260000000	-1.502619e-001	-5.521952e-002	-2.598158e-003	1.700416e-004	-2.588075e-003	1.693151e-004	5.484480e-002	-1.466429e-001
2280000000	-1.495955e-001	-4.297507e-004	6.661644e-004	7.343660e-004	6.773255e-004	7.451069e-004	3.637667e-002	-1.420766e-001
2300000000	-1.485122e-001	3.019937e-002	-5.023682e-004	-9.580746e-004	-5.441434e-004	-9.815313e-004	1.431957e-002	-1.252133e-001
2320000000	-1.393671e-001	7.436583e-002	1.738150e-005	1.761293e-004	4.988642e-006	2.076114e-004	6.277507e-003	-1.172895e-001
2340000000	-1.252629e-001	1.053011e-001	-9.468992e-004	2.453942e-003	-9.134130e-004	2.458162e-003	-1.519486e-003	-9.904197e-002
2360000000	-9.888324e-002	1.275376e-001	1.243731e-004	5.375605e-004	1.286880e-004	5.154978e-004	-6.823602e-003	-9.428794e-002
2380000000	-8.472238e-002	1.498524e-001	-2.446193e-004	2.589617e-003	-2.275678e-004	2.577461e-003	-5.955625e-003	-7.939516e-002
2400000000	-5.021278e-002	1.777360e-001	9.188238e-004	-1.540590e-003	9.021784e-004	-1.559268e-003	-6.302992e-003	-7.625547e-002
2420000000	-2.377223e-002	1.776248e-001	6.676163e-005	-4.949921e-004	5.599613e-005	-4.753218e-004	-1.820035e-003	-7.228282e-002
2440000000	1.262249e-004	1.830134e-001	-1.690733e-003	-4.129903e-004	-1.673989e-003	-3.825844e-004	4.163569e-004	-8.128382e-002
2460000000	2.989124e-002	1.839776e-001	4.066862e-004	1.934049e-003	4.278699e-004	1.951570e-003	-4.467128e-003	-8.412812e-002
2480000000	5.876631e-002	1.735609e-001	1.304402e-003	9.866392e-004	1.301002e-003	9.770990e-004	-1.230593e-002	-8.867328e-002
2500000000	7.783583e-002	1.621894e-001	5.928901e-004	2.946846e-004	5.831994e-004	2.718307e-004	-2.033578e-002	-8.825710e-002
2520000000	9.556114e-002	1.519405e-001	1.346480e-003	1.185593e-003	1.351275e-003	1.187511e-003	-3.042274e-002	-9.335284e-002
2540000000	1.159085e-001	1.316076e-001	2.924236e-003	-3.287601e-004	2.905714e-003	-3.237084e-004	-4.857382e-002	-1.009542e-001
2560000000	1.239025e-001	1.091151e-001	1.342984e-003	-3.033357e-003	1.342750e-003	-3.046590e-003	-6.309923e-002	-9.208382e-002
2580000000	1.251458e-001	8.649797e-002	-2.563547e-004	-2.153916e-003	-2.601516e-004	-2.178473e-003	-7.675681e-002	-8.682185e-002
2600000000	1.279037e-001	7.182924e-002	-8.625532e-004	-7.301481e-004	-8.626562e-004	-7.572293e-004	-9.455513e-002	-8.119609e-002
2620000000	1.251504e-001	5.186749e-002	-7.702877e-004	-3.017862e-003	-7.891159e-004	-3.007101e-003	-1.132950e-001	-7.244310e-002
2640000000	1.162222e-001	3.250581e-002	-1.070747e-003	-5.174471e-005	-1.077748e-003	-5.451782e-005	-1.225508e-001	-6.092112e-002
2660000000	1.030943e-001	2.630191e-002	-6.715194e-004	-3.839277e-004	-6.706820e-004	-3.951593e-004	-1.424083e-001	-4.468397e-002
2680000000	9.775547e-002	2.244854e-002	-1.903229e-003	-8.733817e-004	-1.893000e-003	-8.641748e-004	-1.566594e-001	-1.991146e-002
2700000000	8.071789e-002	4.880690e-003	-1.849530e-003	-2.801071e-004	-1.843322e-003	-2.975008e-004	-1.630519e-001	3.960168e-003
2720000000	6.752418e-002	1.487028e-002	-2.293209e-003	1.906949e-003	-2.307286e-003	1.910524e-003	-1.707093e-001	3.008775e-002
2740000000	6.375881e-002	1.507336e-002	-5.632407e-004	1.733239e-003	-5.748287e-004	1.740288e-003	-1.700430e-001	5.720624e-002
2760000000	5.263044e-002	1.213902e-002	-4.594004e-004	8.463296e-004	-4.502872e-004	8.481678e-004	-1.683284e-001	8.709001e-002
2780000000	4.510402e-002	2.675825e-002	-7.782072e-004	1.832925e-003	-7.630588e-004	1.838888e-003	-1.554306e-001	1.139489e-001
2800000000	5.057670e-002	2.841624e-002	2.678570e-004	2.150453e-003	2.660330e-004	2.142210e-003	-1.457316e-001	1.363371e-001
2820000000	4.060511e-002	3.569755e-002	5.956038e-004	1.053495e-003	5.936456e-004	1.046914e-003	-1.262956e-001	1.598048e-001
2840000000	4.591373e-002	4.161647e-002	5.390860e-004	1.678270e-003	5.274832e-004	1.675684e-003	-1.104406e-001	1.794327e-001
2860000000	5.359188e-002	4.878168e-002	2.344055e-003	1.966025e-003	2.340115e-003	1.974103e-003	-8.706158e-002	2.001593e-001
2880000000	4.964521e-002	5.010963e-002	1.361983e-004	1.027252e-003	1.492413e-004	1.005940e-003	-5.604579e-002	2.132742e-001
2900000000	6.266405e-002	5.807777e-002	1.782745e-003	1.210551e-003	1.791619e-003	1.212015e-003	-3.160518e-002	2.212529e-001
2920000000	7.101543e-002	5.373943e-002	3.138419e-003	8.865441e-004	3.141322e-003	8.760910e-004	-1.987190e-003	2.284390e-001
2940000000	7.382881e-002	5.158404e-002	2.372952e-003	3.066882e-004	2.380102e-003	2.977361e-004	3.019976e-002	2.283959e-001
2960000000	8.883918e-002	5.420440e-002	4.533701e-003	-9.002620e-004	4.551074e-003	-9.149305e-004	5.773470e-002	2.222789e-001
2980000000	9.613614e-002	4.460394e-002	2.724494e-003	-3.204834e-003	2.729521e-003	-3.205002e-003	7.653923e-002	2.191536e-001
3000000000	1.038018e-001	4.246860e-002	1.588964e-003	-3.196800e-003	1.589807e-003	-3.215019e-003	1.102540e-001	2.084363e-001
3020000000	1.126100e-001	2.119421e-002	1.306572e-004	-3.559344e-003	1.384916e-004	-3.573530e-003	1.363061e-001	1.910599e-001
3040000000	1.154550e-001	1.012964e-002	-2.742123e-004	-4.742791e-003	-2.847434e-004	-4.749264e-003	1.600792e-001	1.740764e-001
3060000000	1.123861e-001	-1.905015e-003	-1.296537e-003	-3.621818e-003	-1.315432e-003	-3.625400e-003	1.775874e-001	1.536679e-001
3080000000	1.073349e-001	-1.347163e-002	-1.088013e-003	-2.700124e-003	-1.100906e-003	-2.691893e-003	1.954295e-001	1.268201e-001
3100000000	1.040783e-001	-2.354888e-002	-2.162663e-003	-2.608955e-003	-2.157491e-003	-2.608391e-003	2.080941e-001	1.012158e-001
3120000000	1.029720e-001	-3.283715e-002	-3.827453e-003	-1.859276e-003	-3.840528e-003	-1.860766e-003	2.162304e-001	7.192117e-002
3140000000	9.647981e-002	-4.928919e-002	-5.374834e-003	-1.543467e-003	-5.378739e-003	-1.568177e-003	2.206800e-001	4.629362e-002
3160000000	8.476377e-002	-5.315245e-002	-4.219334e-003	6.406573e-004	-4.247751e-003	6.494013e-004	2.223979e-001	1.909022e-002
3180000000	7.525808e-002	-6.608995e-002	-4.313537e-003	2.494311e-003	-4.320583e-003	2.515693e-003	2.208192e-001	-1.212118e-002
3200000000	5.467083e-002	-7.305850e-002	-1.382504e-003	1.283975e-003	-1.372719e-003	1.276782e-003	2.098774e-001	-4.292805e-002
3220000000	4.882353e-002	-7.067472e-002	-2.932999e-003	1.179326e-003	-2.940992e-003	1.183480e-003	1.975419e-001	-6.967533e-002
3240000000	4.058901e-002	-7.113926e-002	-2.463712e-003	2.401274e-003	-2.468582e-003	2.415942e-003	1.806241e-001	-8.814205e-002
3260000000	2.467835e-002	-7.650784e-002	-1.112580e-003	3.221230e-003	-1.125152e-003	3.219411e-003	1.646972e-001	-1.082682e-001
3280000000	1.547371e-002	-7.855225e-002	-9.080471e-004	4.345974e-003	-9.096969e-004	4.371004e-003	1.473018e-001	-1.246055e-001
3300000000	-2.631830e-003	-7.275598e-002	1.329508e-003	5.011593e-003	1.359601e-003	5.015216e-003	1.266720e-001	-1.472377e-001
3320000000	-1.558825e-002	-6.959831e-002	3.319314e-003	3.352750e-003	3.319567e-003	3.321703e-003	9.760994e-002	-1.633021e-001
3340000000	-2.402490e-002	-5.795606e-002	1.167016e-003	7.641373e-004	1.155185e-003	7.791833e-004	6.547978e-002	-1.682970e-001
3360000000	-2.662563e-002	-4.852656e-002	3.460137e-003	1.539621e-003	3.464073e-003	1.539396e-003	4.357217e-002	-1.672297e-001
3380000000	-2.933311e-002	-4.859736e-002	1.616527e-003	-2.414695e-004	1.620072e-003	-2.427900e-004	1.848480e-002	-1.722885e-001
3400000000	-4.033385e-002	-5.216827e-002	2.115226e-003	1.570285e-003	2.111679e-003	1.564692e-003	-1.012651e-002	-1.759110e-001
3420000000	-5.431711e-002	-3.903503e-002	2.932910e-003	2.036272e-004	2.938734e-003	1.765148e-004	-4.081621e-002	-1.670910e-001
3440000000	-5.971297e-002	-2.834302e-002	2.335905e-003	7.187466e-004	2.336391e-003	7.209528e-004	-7.005733e-002	-1.528594e-001
3460000000	-6.526405e-002	-1.953599e-002	2.881908e-003	-1.497102e-003	2.896145e-003	-1.501718e-003	-8.787748e-002	-1.415004e-001
3480000000	-6.389075e-002	-4.987280e-003	2.361196e-004	-7.700498e-004	2.284225e-004	-7.623087e-004	-1.124512e-001	-1.279931e-001
3500000000	-6.718177e-002	-3.402957e-003	1.981272e-003	-9.322161e-004	2.008994e-003	-9.372462e-004	-1.343474e-001	-1.016687e-001
3520000000	-7.676028e-002	-2.798291e-003	2.216435e-003	-1.702550e-003	2.207786e-003	-1.716605e-003	-1.452992e-001	-7.960308e-002
3540000000	-8.633547e-002	1.530876e-002	1.782258e-003	-1.202378e-003	1.778061e-003	-1.203248e-003	-1.552023e-001	-6.385889e-002
3560000000	-8.582487e-002	3.554485e-002	9.424372e-004	-2.198670e-003	9.385603e-004	-2.224245e-003	-1.717617e-001	-4.014313e-002
3580000000	-8.791580e-002	4.820693e-002	6.072904e-004	-2.681922e-003	5.818121e-004	-2.675855e-003	-1.767784e-001	-1.494013e-002
3600000000	-8.676857e-002	6.478241e-002	3.240192e-004	-2.752226e-003	3.356788e-004	-2.751588e-003	-1.820405e-001	1.394489e-002
3620000000	-7.659328e-002	7.550049e-002	-1.583289e-004	-1.533299e-003	-1.363056e-004	-1.543120e-003	-1.834271e-001	3.801855e-002
3640000000	-7.218315e-002	8.651052e-002	1.718253e-004	-3.132424e-003	1.499718e-004	-3.150961e-003	-1.789526e-001	6.600349e-002
3660000000	-7.033431e-002	1.025552e-001	-9.406180e-004	-2.271019e-003	-9.482351e-004	-2.265211e-003	-1.705612e-001	8.610631e-002
3680000000	-5.308312e-002	1.225902e-001	-1.366474e-003	-2.821583e-003	-1.394354e-003	-2.818465e-003	-1.601073e-001	1.055205e-001
3700000000	-3.589628e-002	1.333625e-001	-1.607075e-003	-6.702313e-004	-1.609201e-003	-6.646892e-004	-1.491157e-001	1.236643e-001
3720000000	-1.249396e-002	1.381009e-001	-1.085962e-003	-2.407585e-003	-1.074541e-003	-2.407369e-003	-1.368962e-001	1.435669e-001
3740000000	4.516232e-003	1.392916e-001	-1.805771e-003	-2.646518e-003	-1.822755e-003	-2.646456e-003	-1.223379e-001	1.561647e-001
3760000000	2.236523e-002	1.379465e-001	-3.684186e-003	-1.458576e-005	-3.686114e-003	-5.478018e-006	-1.084962e-001	1.619175e-001
3780000000	4.207073e-002	1.335358e-001	-3.485115e-003	-1.132089e-003	-3.511088e-003	-1.132415e-003	-9.529277e-002	1.700799e-001
3800000000	6.091694e-002	1.271860e-001	-4.011580e-003	-1.586731e-004	-4.045525e-003	-1.343414e-004	-8.382669e-002	1.785320e-001
3820000000	7.768493e-002	1.157978e-001	-2.842487e-003	2.024714e-003	-2.829529e-003	2.046556e-003	-7.460317e-002	1.831435e-001
3840000000	9.004788e-002	9.931632e-002	-3.095336e-003	2.284901e-003	-3.094645e-003	2.285902e-003	-6.699653e-002	1.894283e-001
3860000000	1.039150e-001	8.171414e-002	-1.797323e-003	2.594168e-003	-1.774599e-003	2.616200e-003	-5.681939e-002	1.944900e-001
3880000000	1.082451e-001	5.974828e-002	-1.299528e-003	2.887363e-003	-1.294326e-003	2.872527e-003	-4.530963e-002	2.007501e-001
3900000000	1.065393e-001	4.323474e-002	-1.313264e-003	2.942701e-003	-1.319045e-003	2.959675e-003	-3.701658e-002	2.086992e-001
3920000000	1.065359e-001	2.525864e-002	-1.652939e-003	4.224158e-003	-1.632081e-003	4.243592e-003	-2.943585e-002	2.157993e-001
3940000000	1.025814e-001	5.306274e-003	1.025011e-003	4.912950e-003	1.052453e-003	4.907772e-003	-2.314544e-002	2.189562e-001
3960000000	9.527710e-002	-1.188697e-002	5.428990e-004	3.968536e-003	5.731433e-004	3.986181e-003	-1.443481e-002	2.258435e-001
3980000000	8.160283e-002	-3.182067e-002	3.282112e-003	3.826171e-003	3.323001e-003	3.806086e-003	-1.454130e-003	2.349791e-001
4000000000	6.111686e-002	-4.032148e-002	3.815212e-003	2.441552e-003	3.813210e-003	2.430914e-003	1.409104e-002	2.444879e-001
4020000000	4.513314e-002	-4.583450e-002	3.704777e-003	4.954599e-004	3.709314e-003	4.825649e-004	2.620336e-002	2.483765e-001
4040000000	2.735147e-002	-5.286882e-002	3.364787e-003	1.038754e-003	3.378651e-003	1.033501e-003	3.463322e-002	2.508163e-001
4060000000	9.146684e-003	-5.292107e-002	3.613637e-003	9.673290e-004	3.614121e-003	9.512057e-004	4.703851e-002	2.532485e-001
4080000000	-7.669091e-003	-4.928809e-002	2.916174e-003	-9.941507e-004	2.923825e-003	-9.986457e-004	6.404485e-002	2.579495e-001
